
**** 02/07/13 14:21:53 ******* PSpice Lite (April 2011) ******* ID# 10813 ****

 ** Profile: "SCHEMATIC1-bias"  [ C:\ORCAD\ORCAD_16.5_LITE\PROJECTS\Hi-Lo CutOut schematic\6v hilo cutout-pspicefiles\schematic1\bias


 ****     CIRCUIT DESCRIPTION


******************************************************************************




** Creating circuit file "bias.cir" 
** WARNING: THIS AUTOMATICALLY GENERATED FILE MAY BE OVERWRITTEN BY SUBSEQUENT SIMULATIONS

*Libraries: 
* Profile Libraries :
* Local Libraries :
* From [PSPICE NETLIST] section of C:\OrCAD\OrCAD_16.5_Lite\tools\pspice\PSpice.ini file:
.lib "nomd.lib" 

*Analysis directives: 
.PROBE V(*) I(*) W(*) D(*) NOISE(*) 
.INC "..\SCHEMATIC1.net" 



**** INCLUDING SCHEMATIC1.net ****
* source 6V HILO CUTOUT
V_VCC         VCC 0 6.3Vdc
R_HB1_R5         0 HB1_N00292  53k TC=0,0 
R_HB1_R6         HB1_N00292 N00460  11k TC=0,0 
R_HB1_R7         N00460 VCC  1k TC=0,0 

**** RESUMING bias.cir ****
.END

**** 02/07/13 14:21:53 ******* PSpice Lite (April 2011) ******* ID# 10813 ****

 ** Profile: "SCHEMATIC1-bias"  [ C:\ORCAD\ORCAD_16.5_LITE\PROJECTS\Hi-Lo CutOut schematic\6v hilo cutout-pspicefiles\schematic1\bias


 ****     SMALL SIGNAL BIAS SOLUTION       TEMPERATURE =   27.000 DEG C


******************************************************************************



 NODE   VOLTAGE     NODE   VOLTAGE     NODE   VOLTAGE     NODE   VOLTAGE


(  VCC)    6.3000  (N00460)    6.2031 (HB1_N00292)    5.1369                




    VOLTAGE SOURCE CURRENTS
    NAME         CURRENT

    V_VCC       -9.692E-05

    TOTAL POWER DISSIPATION   6.11E-04  WATTS



          JOB CONCLUDED

**** 02/07/13 14:21:53 ******* PSpice Lite (April 2011) ******* ID# 10813 ****

 ** Profile: "SCHEMATIC1-bias"  [ C:\ORCAD\ORCAD_16.5_LITE\PROJECTS\Hi-Lo CutOut schematic\6v hilo cutout-pspicefiles\schematic1\bias


 ****     JOB STATISTICS SUMMARY


******************************************************************************



  Total job time (using Solver 1)   =         .02
