
**** 02/15/13 23:32:40 ****** PSpice 16.5.0 (April 2011) ****** ID# 0 ********

 ** Profile: "SCHEMATIC1-transient"  [ D:\sumit\LEDs\ORCAD_SCHEMATICS\LED_Driver+Mobile_Charger_Project\Hi-Lo CutOut schematic\6v hil


 ****     CIRCUIT DESCRIPTION


******************************************************************************




** Creating circuit file "transient.cir" 
** WARNING: THIS AUTOMATICALLY GENERATED FILE MAY BE OVERWRITTEN BY SUBSEQUENT SIMULATIONS

*Libraries: 
* Profile Libraries :
* Local Libraries :
.LIB "../../../on_amp.lib" 
.LIB "../../../tl431.lib" 
* From [PSPICE NETLIST] section of C:\Cadence\SPB_16.5\tools\PSpice\PSpice.ini file:
.lib "nom.lib" 

*Analysis directives: 
.TRAN  0 300ms 0 
.PROBE V(alias(*)) I(alias(*)) W(alias(*)) D(alias(*)) NOISE(alias(*)) 
.INC "..\SCHEMATIC1.net" 



**** INCLUDING SCHEMATIC1.net ****
* source 6V HILO CUTOUT
R_HB1_R5         0 HB1_N08932  53k TC=0,0 
R_HB1_R6         HB1_N08932 HB1_N00633  11k TC=0,0 
R_HB1_R7         HB1_N00633 VCC  1k TC=0,0 
R_HB1_R12         HB1_N04208 HB1_N00633  8.2k TC=0,0 
R_HB1_R13         0 HB1_N04208  56k TC=0,0 
R_HB1_R14         HB1_N04208 HB1_N10787  1k TC=0,0 
R_HB1_R15         0 HB1_N13416  56.2k TC=0,0 
R_HB1_R16         HB1_N13416 VCC  56k TC=0,0 
X_HB1_U5         HB1_N00633 0 HB1_N08932 TL431
C_HB1_C3         0 HB1_N00633  1n  TC=0,0 
R_HB1_R17         HB1_N14594 VCC  39k TC=0,0 
R_HB1_R18         0 HB1_N14594  26k TC=0,0 
X_HB1_DualOpAmp_U7         HB1_N14594 HB1_N10787 VCC 0 N02044 LM358
X_HB1_DualOpAmp_U6         HB1_N10787 HB1_N13416 VCC 0 N01591 LM358
V_V2         VCC 0  
+PWL 0 0 0.01 5 0.02 6.6 0.03 6.1 0.04 4 0.1 8 0.15 6 

**** RESUMING transient.cir ****
.END

**** 02/15/13 23:32:40 ****** PSpice 16.5.0 (April 2011) ****** ID# 0 ********

 ** Profile: "SCHEMATIC1-transient"  [ D:\sumit\LEDs\ORCAD_SCHEMATICS\LED_Driver+Mobile_Charger_Project\Hi-Lo CutOut schematic\6v hil


 ****     Diode MODEL PARAMETERS


******************************************************************************




               X_HB1_U5.DCLAMP X_HB1_DualOpAmp_U7.x_lm358.dx 
          IS   13.500000E-09  800.000000E-18 
           N    1.59                         
          BV   34                            
         IBV    1.000000E-03                 
          RS     .025           1            
          TT   50.400000E-09                 
         CJO   45.000000E-12                 
          VJ     .75                         
           M     .302                        


               X_HB1_DualOpAmp_U7.x_lm358.dy 
          IS  800.000000E-18 
          RS    1.000000E-03 
         CJO   10.000000E-12 


               X_HB1_DualOpAmp_U6.x_lm358.dx 
          IS  800.000000E-18 
          RS    1            


               X_HB1_DualOpAmp_U6.x_lm358.dy 
          IS  800.000000E-18 
          RS    1.000000E-03 
         CJO   10.000000E-12 


**** 02/15/13 23:32:40 ****** PSpice 16.5.0 (April 2011) ****** ID# 0 ********

 ** Profile: "SCHEMATIC1-transient"  [ D:\sumit\LEDs\ORCAD_SCHEMATICS\LED_Driver+Mobile_Charger_Project\Hi-Lo CutOut schematic\6v hil


 ****     BJT MODEL PARAMETERS


******************************************************************************




               X_HB1_DualOpAmp_U7.x_lm358.qx 
               PNP             
       LEVEL    1            
          IS  800.000000E-18 
          BF  166.7          
          NF    1            
          BR    1            
          NR    1            
         ISS    0            
          RE    0            
          RC    0            
         CJE    0            
         VJE     .75         
         CJC    0            
         VJC     .75         
         MJC     .33         
        XCJC    1            
         CJS    0            
         VJS     .75         
          KF    0            
          AF    1            
          CN    2.2          
           D     .52         


               X_HB1_DualOpAmp_U6.x_lm358.qx 
               PNP             
       LEVEL    1            
          IS  800.000000E-18 
          BF  166.7          
          NF    1            
          BR    1            
          NR    1            
         ISS    0            
          RE    0            
          RC    0            
         CJE    0            
         VJE     .75         
         CJC    0            
         VJC     .75         
         MJC     .33         
        XCJC    1            
         CJS    0            
         VJS     .75         
          KF    0            
          AF    1            
          CN    2.2          
           D     .52         


**** 02/15/13 23:32:40 ****** PSpice 16.5.0 (April 2011) ****** ID# 0 ********

 ** Profile: "SCHEMATIC1-transient"  [ D:\sumit\LEDs\ORCAD_SCHEMATICS\LED_Driver+Mobile_Charger_Project\Hi-Lo CutOut schematic\6v hil


 ****     Current Controlled Switch MODEL PARAMETERS


******************************************************************************




               X_HB1_DualOpAmp_U7.x_lm358.sw2 
         RON    1            
        ROFF   10.000000E+06 
         ION    0            
        IOFF   -1.000000E-06 


               X_HB1_DualOpAmp_U7.x_lm358.sw1 
         RON    1            
        ROFF   10.000000E+06 
         ION   -1.000000E-06 
        IOFF    0            


               X_HB1_DualOpAmp_U7.x_lm358.sw3 
         RON    1            
        ROFF   10.000000E+06 
         ION   -1.000000E-06 
        IOFF    0            


               X_HB1_DualOpAmp_U7.x_lm358.sw4 
         RON    1            
        ROFF   10.000000E+06 
         ION    0            
        IOFF   -1.000000E-06 


               X_HB1_DualOpAmp_U6.x_lm358.sw2 
         RON    1            
        ROFF   10.000000E+06 
         ION    0            
        IOFF   -1.000000E-06 


               X_HB1_DualOpAmp_U6.x_lm358.sw1 
         RON    1            
        ROFF   10.000000E+06 
         ION   -1.000000E-06 
        IOFF    0            


               X_HB1_DualOpAmp_U6.x_lm358.sw3 
         RON    1            
        ROFF   10.000000E+06 
         ION   -1.000000E-06 
        IOFF    0            


               X_HB1_DualOpAmp_U6.x_lm358.sw4 
         RON    1            
        ROFF   10.000000E+06 
         ION    0            
        IOFF   -1.000000E-06 


**** 02/15/13 23:32:40 ****** PSpice 16.5.0 (April 2011) ****** ID# 0 ********

 ** Profile: "SCHEMATIC1-transient"  [ D:\sumit\LEDs\ORCAD_SCHEMATICS\LED_Driver+Mobile_Charger_Project\Hi-Lo CutOut schematic\6v hil


 ****     INITIAL TRANSIENT SOLUTION       TEMPERATURE =   27.000 DEG C


******************************************************************************



 NODE   VOLTAGE     NODE   VOLTAGE     NODE   VOLTAGE     NODE   VOLTAGE


(  VCC)    0.0000  (N01591)    -.3390 (N02044)    -.3390 (HB1_N00633) 89.13E-06 

(HB1_N04208) 720.7E-06                (HB1_N08932) 73.81E-06                    

(HB1_N10787) 810.6E-06                (HB1_N13416)     .0013                    

(HB1_N14594) 700.7E-06                (X_HB1_U5.1)    2.4950                    

(X_HB1_U5.2)    4.2813                (X_HB1_U5.3)    4.2813                    

(X_HB1_U5.4)    0.0000                (X_HB1_U5.5)    2.0000                    

(X_HB1_U5.8)    1.8219                (X_HB1_DualOpAmp_U6.x_lm358.6)     .0119  

(X_HB1_DualOpAmp_U6.x_lm358.7)    -.4644                                        

(X_HB1_DualOpAmp_U6.x_lm358.8)    -.4644                                        

(X_HB1_DualOpAmp_U6.x_lm358.9)    0.0000                                        

(X_HB1_DualOpAmp_U6.x_lm358.a)     .0025                                        

(X_HB1_DualOpAmp_U6.x_lm358.b)     .0025                                        

(X_HB1_DualOpAmp_U7.x_lm358.6)     .0057                                        

(X_HB1_DualOpAmp_U7.x_lm358.7)    -.3986                                        

(X_HB1_DualOpAmp_U7.x_lm358.8)    -.3986                                        

(X_HB1_DualOpAmp_U7.x_lm358.9)    0.0000                                        

(X_HB1_DualOpAmp_U7.x_lm358.a)     .0012                                        

(X_HB1_DualOpAmp_U7.x_lm358.b)     .0012                                        

(X_HB1_DualOpAmp_U6.x_lm358.10)     .6087                                       

(X_HB1_DualOpAmp_U6.x_lm358.11)     .0394                                       

(X_HB1_DualOpAmp_U6.x_lm358.12)     .0399                                       

(X_HB1_DualOpAmp_U6.x_lm358.13)     .5949                                       

(X_HB1_DualOpAmp_U6.x_lm358.14)     .5948                                       

(X_HB1_DualOpAmp_U6.x_lm358.53)   -1.5000                                       

(X_HB1_DualOpAmp_U6.x_lm358.54)     .8220                                       

(X_HB1_DualOpAmp_U6.x_lm358.90)   -2.5076                                       

(X_HB1_DualOpAmp_U6.x_lm358.91)   40.0000                                       

(X_HB1_DualOpAmp_U6.x_lm358.92)  -40.0000                                       

(X_HB1_DualOpAmp_U6.x_lm358.99)    0.0000                                       

(X_HB1_DualOpAmp_U7.x_lm358.10)     .6084                                       

(X_HB1_DualOpAmp_U7.x_lm358.11)     .0396                                       

(X_HB1_DualOpAmp_U7.x_lm358.12)     .0397                                       

(X_HB1_DualOpAmp_U7.x_lm358.13)     .5946                                       

(X_HB1_DualOpAmp_U7.x_lm358.14)     .5945                                       

(X_HB1_DualOpAmp_U7.x_lm358.53)   -1.5000                                       

(X_HB1_DualOpAmp_U7.x_lm358.54)     .8220                                       

(X_HB1_DualOpAmp_U7.x_lm358.90)   -1.1913                                       

(X_HB1_DualOpAmp_U7.x_lm358.91)   40.0000                                       

(X_HB1_DualOpAmp_U7.x_lm358.92)  -40.0000                                       

(X_HB1_DualOpAmp_U7.x_lm358.99)    0.0000                




    VOLTAGE SOURCE CURRENTS
    NAME         CURRENT

    V_V2         2.701E+02
    X_HB1_U5.V1   0.000E+00
    X_HB1_U5.V4  -1.014E-06
    X_HB1_DualOpAmp_U7.x_lm358.vb   5.695E-08
    X_HB1_DualOpAmp_U7.x_lm358.vc  -1.350E+02
    X_HB1_DualOpAmp_U7.x_lm358.ve  -1.350E+02
    X_HB1_DualOpAmp_U7.x_lm358.vlim  -1.191E-03
    X_HB1_DualOpAmp_U7.x_lm358.vlp  -4.119E-11
    X_HB1_DualOpAmp_U7.x_lm358.vln  -3.881E-11
    X_HB1_DualOpAmp_U6.x_lm358.vb   1.192E-07
    X_HB1_DualOpAmp_U6.x_lm358.vc  -1.350E+02
    X_HB1_DualOpAmp_U6.x_lm358.ve  -1.350E+02
    X_HB1_DualOpAmp_U6.x_lm358.vlim  -2.508E-03
    X_HB1_DualOpAmp_U6.x_lm358.vlp  -4.251E-11
    X_HB1_DualOpAmp_U6.x_lm358.vln  -3.750E-11

    TOTAL POWER DISSIPATION   6.27E+02  WATTS



          JOB CONCLUDED

**** 02/15/13 23:32:40 ****** PSpice 16.5.0 (April 2011) ****** ID# 0 ********

 ** Profile: "SCHEMATIC1-transient"  [ D:\sumit\LEDs\ORCAD_SCHEMATICS\LED_Driver+Mobile_Charger_Project\Hi-Lo CutOut schematic\6v hil


 ****     JOB STATISTICS SUMMARY


******************************************************************************



  Total job time (using Solver 1)   =         .45
